
T2B14 000:256 SEGGER J-Link V4.54a Log File (0001ms, 0257ms total)
T2B14 000:256 DLL Compiled: Sep 17 2012 15:58:45 (0001ms, 0257ms total)
T2B14 000:256 Logging started @ 2017-03-15 08:23 (0001ms, 0257ms total)
T2B14 000:257 JLINK_SetWarnOutHandler(...) (0000ms, 0257ms total)
T2B14 000:257 JLINK_OpenEx(...)
Firmware: J-Link ARM V8 compiled Nov 14 2012 22:34:52
Hardware: V8.00
S/N: 799713843
Feature(s): RDI,FlashDL,FlashBP,JFlash,GDBFULL  returns O.K. (0029ms, 0286ms total)
T2B14 000:286 JLINK_SetErrorOutHandler(...) (0000ms, 0286ms total)
T2B14 000:286 JLINK_ExecCommand("ProjectFile = "F:\temp\STM32\STM32_project\proj00_test\JLinkSettings.ini"", ...)  returns 0x00 (0000ms, 0286ms total)
T2B14 000:288 JLINK_ExecCommand("Device = STM32F103ZE", ...)
                JLINK_ExecCommand("map ram 0x20000000 - 0x2000FFFF", ...)  returns 0x00 (0000ms, 0000ms total)
                JLINK_AddMirrorAreaEx(Addr = 0x00000000, Size = 0x00000000) (0000ms, 0000ms total)
              Device "STM32F103ZE" selected (512 KB flash, 64 KB RAM).  returns 0x00 (0003ms, 0289ms total)
T2B14 000:291 JLINK_ExecCommand("DisableConnectionTimeout", ...)  returns 0x00 (0000ms, 0289ms total)
T2B14 000:291 JLINK_TIF_Select(JLINKARM_TIF_JTAG)  returns 0x00 (0000ms, 0289ms total)
T2B14 000:291 JLINK_SetSpeed(2000) (0000ms, 0289ms total)
T2B14 000:291 JLINK_GetHardwareVersion()  returns 0x13880 (0000ms, 0289ms total)
T2B14 000:291 JLINK_GetDLLVersion()  returns 45401 (0001ms, 0290ms total)
T2B14 000:292 JLINK_GetFirmwareString(...) (0000ms, 0290ms total)
T2B14 000:296 JLINK_GetDLLVersion()  returns 45401 (0000ms, 0290ms total)
T2B14 000:296 JLINK_GetCompileDateTime() (0000ms, 0290ms total)
T2B14 000:297 JLINK_GetFirmwareString(...) (0000ms, 0290ms total)
T2B14 000:299 JLINK_GetHardwareVersion()  returns 0x13880 (0000ms, 0290ms total)
T2B14 000:303 JLINK_GetIdData(...) >0x2F8 JTAG>TotalIRLen = 9, IRPrint = 0x0011 >0x30 JTAG> >0x210 JTAG> >0x40 JTAG> >0x40 JTAG> >0x40 JTAG> >0x30 JTAG> >0x40 JTAG> >0x40 JTAG> >0x40 JTAG> >0x40 JTAG> >0x40 JTAG> >0x40 JTAG> >0x40 JTAG> >0x40 JTAG> >0x2F8 JTAG>TotalIRLen = 9, IRPrint = 0x0011 >0x30 JTAG> >0x210 JTAG> >0x80 JTAG> >0x40 JTAG> >0x40 JTAG> >0x50 JTAG> >0x40 JTAG> >0x40 JTAG> >0x40 JTAG> >0x50 JTAG> >0x40 JTAG> >0x40 JTAG> >0x40 JTAG> >0x30 JTAG> >0x40 JTAG> >0x50 JTAG> >0x40 JTAG>
 >0x38 JTAG> >0x80 JTAG> >0x40 JTAG> >0x40 JTAG> >0x50 JTAG> >0x40 JTAG> >0x40 JTAG> >0x40 JTAG> >0x50 JTAG> >0x40 JTAG> >0x40 JTAG> >0x30 JTAG> >0x40 JTAG> >0x40 JTAG> >0x40 JTAG> >0x40 JTAG> >0x40 JTAG> >0x50 JTAG> >0x40 JTAG> >0x80 JTAG> >0x40 JTAG> >0x30 JTAG> >0x40 JTAG> >0x40 JTAG> >0x40 JTAG> >0x40 JTAG> >0x40 JTAG> >0x50 JTAG> >0x40 JTAG> >0x80 JTAG> >0x40 JTAG> >0x30 JTAG> >0x40 JTAG> >0x50 JTAG> >0x40 JTAG> >0x40 JTAG> >0x40 JTAG> >0x30 JTAG> >0x40 JTAG> >0x50 JTAG> >0x40 JTAG>
Found Cortex-M3 r1p1, Little endian. >0x50 JTAG> >0x50 JTAG> >0x40 JTAG> >0x40 JTAG> >0x30 JTAG> >0x30 JTAG> >0x50 JTAG> >0x40 JTAG> >0x80 JTAG> >0x40 JTAG> >0x30 JTAG> >0x40 JTAG> >0x50 JTAG> >0x40 JTAG> >0x40 JTAG> >0x40 JTAG> >0x30 JTAG> >0x40 JTAG> >0x50 JTAG> >0x40 JTAG>TPIU fitted. >0x40 JTAG> >0x40 JTAG> >0x30 JTAG> >0x40 JTAG> >0x50 JTAG> >0x40 JTAG>ETM fitted. >0x40 JTAG> >0x40 JTAG> >0x30 JTAG> >0x40 JTAG> >0x50 JTAG> >0x40 JTAG> >0x40 JTAG> >0x40 JTAG> >0x30 JTAG> >0x40 JTAG> >0x50 JTAG>
 >0x40 JTAG>FPUnit: 6 code (BP) slots and 2 literal slots >0x40 JTAG> >0x40 JTAG> >0x30 JTAG> >0x40 JTAG> >0x50 JTAG> >0x40 JTAG> >0x40 JTAG> >0x40 JTAG> >0x30 JTAG> >0x40 JTAG> >0x50 JTAG> >0x40 JTAG> >0x40 JTAG> >0x40 JTAG> >0x30 JTAG> >0x30 JTAG> >0x50 JTAG> >0x40 JTAG> ScanLen=9 NumDevices=2 aId[0]=0x3BA00477 aIrRead[0]=0 aScanLen[0]=0 aScanRead[0]=0 (0148ms, 0438ms total)
T2B14 000:451 JLINK_JTAG_GetDeviceID(DeviceIndex = 0)  returns 0x3BA00477 (0000ms, 0438ms total)
T2B14 000:451 JLINK_JTAG_GetDeviceInfo(DeviceIndex = 0)  returns 0x00 (0000ms, 0438ms total)
T2B14 000:451 JLINK_JTAG_GetDeviceID(DeviceIndex = 1)  returns 0x6414041 (0000ms, 0438ms total)
T2B14 000:451 JLINK_JTAG_GetDeviceInfo(DeviceIndex = 1)  returns 0x00 (0000ms, 0438ms total)
T2B14 000:451 JLINK_GetDeviceFamily()  returns 3 (0000ms, 0438ms total)
T2B14 000:453 JLINK_ReadMem (0xE00FFFF0, 0x0010 Bytes, ...) -- CPU is running -- CPU_ReadMem(16 bytes @ 0xE00FFFF0) -- Data:  0D 00 00 00 10 00 00 00 05 00 00 00 B1 00 00 00  returns 0x00 (0004ms, 0442ms total)
T2B14 000:457 JLINK_ReadMem (0xE00FFFD0, 0x0020 Bytes, ...) -- CPU is running -- CPU_ReadMem(32 bytes @ 0xE00FFFD0) -- Data:  00 00 00 00 00 00 00 00 00 00 00 00 00 00 00 00 ...  returns 0x00 (0001ms, 0443ms total)
T2B14 000:458 JLINK_ReadMem (0xE00FF000, 0x0018 Bytes, ...) -- CPU is running -- CPU_ReadMem(24 bytes @ 0xE00FF000) -- Data:  03 F0 F0 FF 03 20 F0 FF 03 30 F0 FF 03 10 F0 FF ...  returns 0x00 (0001ms, 0444ms total)
T2B14 000:459 JLINK_ReadMemU32(0xE000ED00, 0x0001 Items, ...) -- CPU is running -- CPU_ReadMem(4 bytes @ 0xE000ED00) -- Data:  31 C2 1F 41  returns 0x01 (0001ms, 0445ms total)
T2B14 000:460 JLINK_SetResetType(JLINKARM_RESET_TYPE_NORMAL)  returns JLINKARM_RESET_TYPE_NORMAL (0000ms, 0445ms total)
T2B14 000:460 JLINK_Reset() >0x88 JTAG> >0x80 JTAG> >0x40 JTAG> >0x40 JTAG> >0x50 JTAG> >0x40 JTAG> >0x40 JTAG> >0x40 JTAG> >0x50 JTAG> >0x40 JTAG> >0x40 JTAG> >0x30 JTAG> >0x40 JTAG> >0x40 JTAG> >0x40 JTAG> >0x40 JTAG> >0x40 JTAG> >0x50 JTAG> >0x40 JTAG> >0x80 JTAG> >0x40 JTAG> >0x30 JTAG> >0x40 JTAG> >0x40 JTAG> >0x40 JTAG> >0x40 JTAG> >0x40 JTAG> >0x50 JTAG> >0x40 JTAG> >0x80 JTAG> >0x40 JTAG> >0x30 JTAG> >0x40 JTAG> >0x50 JTAG> >0x40 JTAG> >0x40 JTAG> >0x40 JTAG> >0x30 JTAG> >0x40 JTAG> >0x50 JTAG>
 >0x40 JTAG>Found Cortex-M3 r1p1, Little endian. >0x50 JTAG> >0x50 JTAG> >0x40 JTAG> >0x40 JTAG> >0x30 JTAG> >0x30 JTAG> >0x50 JTAG> >0x40 JTAG> >0x80 JTAG> >0x40 JTAG> >0x30 JTAG> >0x40 JTAG> >0x50 JTAG> >0x40 JTAG> >0x40 JTAG> >0x40 JTAG> >0x30 JTAG> >0x40 JTAG> >0x50 JTAG> >0x40 JTAG>TPIU fitted. >0x40 JTAG> >0x40 JTAG> >0x30 JTAG> >0x40 JTAG> >0x50 JTAG> >0x40 JTAG>ETM fitted. >0x40 JTAG> >0x40 JTAG> >0x30 JTAG> >0x40 JTAG> >0x50 JTAG> >0x40 JTAG> >0x40 JTAG> >0x40 JTAG> >0x30 JTAG> >0x40 JTAG>
 >0x50 JTAG> >0x40 JTAG>FPUnit: 6 code (BP) slots and 2 literal slots >0x40 JTAG> >0x40 JTAG> >0x30 JTAG> >0x40 JTAG> >0x50 JTAG> >0x40 JTAG> >0x40 JTAG> >0x40 JTAG> >0x30 JTAG> >0x40 JTAG> >0x50 JTAG> >0x40 JTAG> >0x40 JTAG> >0x40 JTAG> >0x30 JTAG> >0x30 JTAG> >0x50 JTAG> >0x40 JTAG> -- CPU is running -- CPU_WriteMem(4 bytes @ 0xE000EDF0) -- CPU is running -- CPU_WriteMem(4 bytes @ 0xE000EDFC) -- CPU is running -- CPU_WriteMem(4 bytes @ 0xE000ED0C) -- CPU is running -- CPU_ReadMem(4 bytes @ 0xE000EDF0)
 -- CPU is running -- CPU_ReadMem(4 bytes @ 0xE000EDF0) -- CPU is running -- CPU_WriteMem(4 bytes @ 0xE000EDF0) -- CPU is running -- CPU_WriteMem(4 bytes @ 0xE000EDFC) -- CPU is running -- CPU_ReadMem(4 bytes @ 0xE000EDF0) >0xD0 JTAG> >0x40 JTAG> >0x30 JTAG> >0x40 JTAG> >0x50 JTAG> >0x40 JTAG> -- CPU_WriteMem(4 bytes @ 0xE000EDFC) -- CPU_WriteMem(4 bytes @ 0xE0001028) -- CPU_WriteMem(4 bytes @ 0xE0001038) -- CPU_WriteMem(4 bytes @ 0xE0001048) -- CPU_WriteMem(4 bytes @ 0xE0001058)
 -- CPU_WriteMem(4 bytes @ 0xE0002000) (0146ms, 0591ms total)
T2B14 000:606 JLINK_Halt()  returns 0x00 (0000ms, 0591ms total)
T2B14 000:606 JLINK_IsHalted()  returns TRUE (0000ms, 0591ms total)
T2B14 000:606 JLINK_ReadMemU32(0xE000EDF0, 0x0001 Items, ...) -- CPU_ReadMem(4 bytes @ 0xE000EDF0) -- Data:  03 00 03 00  returns 0x01 (0001ms, 0592ms total)
T2B14 000:607 JLINK_WriteU32(0xE000EDF0, 0xA05F0003) -- CPU_WriteMem(4 bytes @ 0xE000EDF0)  returns 0x00 (0001ms, 0593ms total)
T2B14 000:608 JLINK_WriteU32(0xE000EDFC, 0x01000000) -- CPU_WriteMem(4 bytes @ 0xE000EDFC)  returns 0x00 (0001ms, 0594ms total)
T2B14 000:624 JLINK_GetHWStatus(...)  returns 0x00 (0002ms, 0596ms total)
T2B14 000:632 JLINK_GetNumBPUnits(Type = 0xFFFFFF00)  returns 0x06 (0000ms, 0596ms total)
T2B14 000:632 JLINK_GetNumBPUnits(Type = 0xF0)  returns 0x2000 (0000ms, 0596ms total)
T2B14 000:632 JLINK_GetNumWPUnits()  returns 0x04 (0000ms, 0596ms total)
T2B14 000:638 JLINK_GetSpeed()  returns 0x7D0 (0000ms, 0596ms total)
T2B14 000:642 JLINK_ReadMemU32(0xE000E004, 0x0001 Items, ...) -- CPU_ReadMem(4 bytes @ 0xE000E004) -- Data:  01 00 00 00  returns 0x01 (0001ms, 0597ms total)
T2B14 000:643 JLINK_ReadMemU32(0xE000E004, 0x0001 Items, ...) -- CPU_ReadMem(4 bytes @ 0xE000E004) -- Data:  01 00 00 00  returns 0x01 (0001ms, 0598ms total)
T2B14 000:644 JLINK_WriteMem(0xE0001000, 0x001C Bytes, ...) -- Data:  01 00 00 00 00 00 00 00 00 00 00 00 00 00 00 00 ... -- CPU_WriteMem(28 bytes @ 0xE0001000)  returns 0x1C (0003ms, 0601ms total)
T2B14 000:647 JLINK_ReadMem (0xE0001000, 0x001C Bytes, ...) -- CPU_ReadMem(28 bytes @ 0xE0001000) -- Data:  01 00 00 40 00 00 00 00 00 00 00 00 00 00 00 00 ...  returns 0x00 (0001ms, 0602ms total)
T2B14 000:648 JLINK_Halt()  returns 0x00 (0000ms, 0602ms total)
T2B14 000:648 JLINK_IsHalted()  returns TRUE (0000ms, 0602ms total)
T2B14 000:651 JLINK_WriteMem(0x20000000, 0x0164 Bytes, ...) -- Data:  00 BE 0A E0 0D 78 2D 06 68 40 08 24 40 00 00 D3 ... -- CPU_WriteMem(356 bytes @ 0x20000000)  returns 0x164 (0003ms, 0605ms total)
T2B14 000:654 JLINK_WriteReg(R0, 0x08000000)  returns 0x00 (0000ms, 0605ms total)
T2B14 000:654 JLINK_WriteReg(R1, 0x007A1200)  returns 0x00 (0000ms, 0605ms total)
T2B14 000:654 JLINK_WriteReg(R2, 0x00000001)  returns 0x00 (0000ms, 0605ms total)
T2B14 000:654 JLINK_WriteReg(R3, 0x00000000)  returns 0x00 (0000ms, 0605ms total)
T2B14 000:654 JLINK_WriteReg(R4, 0x00000000)  returns 0x00 (0000ms, 0605ms total)
T2B14 000:654 JLINK_WriteReg(R5, 0x00000000)  returns 0x00 (0000ms, 0605ms total)
T2B14 000:654 JLINK_WriteReg(R6, 0x00000000)  returns 0x00 (0000ms, 0605ms total)
T2B14 000:654 JLINK_WriteReg(R7, 0x00000000)  returns 0x00 (0000ms, 0605ms total)
T2B14 000:654 JLINK_WriteReg(R8, 0x00000000)  returns 0x00 (0000ms, 0605ms total)
T2B14 000:654 JLINK_WriteReg(R9, 0x20000160)  returns 0x00 (0000ms, 0605ms total)
T2B14 000:654 JLINK_WriteReg(R10, 0x00000000)  returns 0x00 (0000ms, 0605ms total)
T2B14 000:654 JLINK_WriteReg(R11, 0x00000000)  returns 0x00 (0000ms, 0605ms total)
T2B14 000:654 JLINK_WriteReg(R12, 0x00000000)  returns 0x00 (0000ms, 0605ms total)
T2B14 000:654 JLINK_WriteReg(R13, 0x20000800)  returns 0x00 (0000ms, 0605ms total)
T2B14 000:654 JLINK_WriteReg(R14, 0x20000001)  returns 0x00 (0000ms, 0605ms total)
T2B14 000:654 JLINK_WriteReg(R15, 0x20000038)  returns 0x00 (0000ms, 0605ms total)
T2B14 000:654 JLINK_WriteReg(XPSR, 0x01000000)  returns 0x00 (0000ms, 0605ms total)
T2B14 000:654 JLINK_WriteReg(MSP, 0x20000800)  returns 0x00 (0000ms, 0605ms total)
T2B14 000:654 JLINK_WriteReg(PSP, 0x20000800)  returns 0x00 (0000ms, 0605ms total)
T2B14 000:654 JLINK_WriteReg(CFBP, 0x00000000)  returns 0x00 (0000ms, 0605ms total)
T2B14 000:654 JLINK_SetBPEx(Addr = 0x20000000, Type = 0xFFFFFFF2) -- CPU_ReadMem(2 bytes @ 0x20000000)  returns 0x00000001 (0002ms, 0607ms total)
T2B14 000:656 JLINK_Go() -- CPU_WriteMem(2 bytes @ 0x20000000) -- CPU_WriteMem(4 bytes @ 0xE0002008) -- CPU_WriteMem(4 bytes @ 0xE000200C) -- CPU_WriteMem(4 bytes @ 0xE0002010) -- CPU_WriteMem(4 bytes @ 0xE0002014) -- CPU_WriteMem(4 bytes @ 0xE0002018) -- CPU_WriteMem(4 bytes @ 0xE000201C) (0010ms, 0617ms total)
T2B14 000:666 JLINK_IsHalted() -- CPU_ReadMem(2 bytes @ 0x20000000)  returns TRUE (0006ms, 0623ms total)
T2B14 000:672 JLINK_ReadReg(R15)  returns 0x20000000 (0000ms, 0617ms total)
T2B14 000:672 JLINK_ClrBPEx(BPHandle = 0x00000001)  returns 0x00 (0000ms, 0617ms total)
T2B14 000:672 JLINK_ReadReg(R0)  returns 0x00000000 (0000ms, 0617ms total)
T2B14 000:673 JLINK_WriteReg(R0, 0x08000000)  returns 0x00 (0000ms, 0617ms total)
T2B14 000:673 JLINK_WriteReg(R1, 0x00000800)  returns 0x00 (0000ms, 0617ms total)
T2B14 000:673 JLINK_WriteReg(R2, 0x000000FF)  returns 0x00 (0000ms, 0617ms total)
T2B14 000:673 JLINK_WriteReg(R3, 0x00000000)  returns 0x00 (0000ms, 0617ms total)
T2B14 000:673 JLINK_WriteReg(R4, 0x00000000)  returns 0x00 (0000ms, 0617ms total)
T2B14 000:673 JLINK_WriteReg(R5, 0x00000000)  returns 0x00 (0000ms, 0617ms total)
T2B14 000:673 JLINK_WriteReg(R6, 0x00000000)  returns 0x00 (0000ms, 0617ms total)
T2B14 000:673 JLINK_WriteReg(R7, 0x00000000)  returns 0x00 (0000ms, 0617ms total)
T2B14 000:673 JLINK_WriteReg(R8, 0x00000000)  returns 0x00 (0000ms, 0617ms total)
T2B14 000:673 JLINK_WriteReg(R9, 0x20000160)  returns 0x00 (0000ms, 0617ms total)
T2B14 000:673 JLINK_WriteReg(R10, 0x00000000)  returns 0x00 (0000ms, 0617ms total)
T2B14 000:673 JLINK_WriteReg(R11, 0x00000000)  returns 0x00 (0000ms, 0617ms total)
T2B14 000:673 JLINK_WriteReg(R12, 0x00000000)  returns 0x00 (0001ms, 0618ms total)
T2B14 000:674 JLINK_WriteReg(R13, 0x20000800)  returns 0x00 (0000ms, 0618ms total)
T2B14 000:674 JLINK_WriteReg(R14, 0x20000001)  returns 0x00 (0000ms, 0618ms total)
T2B14 000:674 JLINK_WriteReg(R15, 0x20000020)  returns 0x00 (0000ms, 0618ms total)
T2B14 000:674 JLINK_WriteReg(XPSR, 0x01000000)  returns 0x00 (0000ms, 0618ms total)
T2B14 000:674 JLINK_WriteReg(MSP, 0x20000800)  returns 0x00 (0000ms, 0618ms total)
T2B14 000:674 JLINK_WriteReg(PSP, 0x20000800)  returns 0x00 (0000ms, 0618ms total)
T2B14 000:674 JLINK_WriteReg(CFBP, 0x00000000)  returns 0x00 (0000ms, 0618ms total)
T2B14 000:674 JLINK_SetBPEx(Addr = 0x20000000, Type = 0xFFFFFFF2)  returns 0x00000002 (0000ms, 0618ms total)
T2B14 000:674 JLINK_Go() (0002ms, 0620ms total)
T2B14 000:676 JLINK_IsHalted() -- CPU_ReadMem(2 bytes @ 0x20000000)  returns TRUE (0006ms, 0626ms total)
T2B14 000:682 JLINK_ReadReg(R15)  returns 0x20000000 (0000ms, 0620ms total)
T2B14 000:682 JLINK_ClrBPEx(BPHandle = 0x00000002)  returns 0x00 (0000ms, 0620ms total)
T2B14 000:682 JLINK_ReadReg(R0)  returns 0x00000001 (0000ms, 0620ms total)
T2B14 000:682 JLINK_WriteReg(R0, 0x08000000)  returns 0x00 (0000ms, 0620ms total)
T2B14 000:682 JLINK_WriteReg(R1, 0x00000800)  returns 0x00 (0000ms, 0620ms total)
T2B14 000:682 JLINK_WriteReg(R2, 0x000000FF)  returns 0x00 (0000ms, 0620ms total)
T2B14 000:682 JLINK_WriteReg(R3, 0x00000000)  returns 0x00 (0000ms, 0620ms total)
T2B14 000:682 JLINK_WriteReg(R4, 0x00000000)  returns 0x00 (0000ms, 0620ms total)
T2B14 000:682 JLINK_WriteReg(R5, 0x00000000)  returns 0x00 (0000ms, 0620ms total)
T2B14 000:682 JLINK_WriteReg(R6, 0x00000000)  returns 0x00 (0000ms, 0620ms total)
T2B14 000:682 JLINK_WriteReg(R7, 0x00000000)  returns 0x00 (0000ms, 0620ms total)
T2B14 000:682 JLINK_WriteReg(R8, 0x00000000)  returns 0x00 (0000ms, 0620ms total)
T2B14 000:682 JLINK_WriteReg(R9, 0x20000160)  returns 0x00 (0000ms, 0620ms total)
T2B14 000:682 JLINK_WriteReg(R10, 0x00000000)  returns 0x00 (0000ms, 0620ms total)
T2B14 000:682 JLINK_WriteReg(R11, 0x00000000)  returns 0x00 (0000ms, 0620ms total)
T2B14 000:682 JLINK_WriteReg(R12, 0x00000000)  returns 0x00 (0000ms, 0620ms total)
T2B14 000:682 JLINK_WriteReg(R13, 0x20000800)  returns 0x00 (0000ms, 0620ms total)
T2B14 000:682 JLINK_WriteReg(R14, 0x20000001)  returns 0x00 (0000ms, 0620ms total)
T2B14 000:682 JLINK_WriteReg(R15, 0x200000B6)  returns 0x00 (0000ms, 0620ms total)
T2B14 000:682 JLINK_WriteReg(XPSR, 0x01000000)  returns 0x00 (0000ms, 0620ms total)
T2B14 000:682 JLINK_WriteReg(MSP, 0x20000800)  returns 0x00 (0000ms, 0620ms total)
T2B14 000:682 JLINK_WriteReg(PSP, 0x20000800)  returns 0x00 (0000ms, 0620ms total)
T2B14 000:682 JLINK_WriteReg(CFBP, 0x00000000)  returns 0x00 (0000ms, 0620ms total)
T2B14 000:683 JLINK_SetBPEx(Addr = 0x20000000, Type = 0xFFFFFFF2)  returns 0x00000003 (0000ms, 0621ms total)
T2B14 000:683 JLINK_Go() (0002ms, 0623ms total)
T2B14 000:685 JLINK_IsHalted()  returns FALSE (0001ms, 0624ms total)
T2B14 000:736 JLINK_IsHalted() -- CPU_ReadMem(2 bytes @ 0x20000000)  returns TRUE (0006ms, 0629ms total)
T2B14 000:742 JLINK_ReadReg(R15)  returns 0x20000000 (0000ms, 0623ms total)
T2B14 000:742 JLINK_ClrBPEx(BPHandle = 0x00000003)  returns 0x00 (0000ms, 0623ms total)
T2B14 000:742 JLINK_ReadReg(R0)  returns 0x00000000 (0000ms, 0623ms total)
T2B14 000:743 JLINK_WriteReg(R0, 0x08000800)  returns 0x00 (0000ms, 0623ms total)
T2B14 000:743 JLINK_WriteReg(R1, 0x00000800)  returns 0x00 (0000ms, 0623ms total)
T2B14 000:743 JLINK_WriteReg(R2, 0x000000FF)  returns 0x00 (0000ms, 0623ms total)
T2B14 000:743 JLINK_WriteReg(R3, 0x00000000)  returns 0x00 (0000ms, 0623ms total)
T2B14 000:743 JLINK_WriteReg(R4, 0x00000000)  returns 0x00 (0000ms, 0623ms total)
T2B14 000:743 JLINK_WriteReg(R5, 0x00000000)  returns 0x00 (0000ms, 0623ms total)
T2B14 000:743 JLINK_WriteReg(R6, 0x00000000)  returns 0x00 (0000ms, 0623ms total)
T2B14 000:743 JLINK_WriteReg(R7, 0x00000000)  returns 0x00 (0000ms, 0623ms total)
T2B14 000:743 JLINK_WriteReg(R8, 0x00000000)  returns 0x00 (0000ms, 0623ms total)
T2B14 000:743 JLINK_WriteReg(R9, 0x20000160)  returns 0x00 (0000ms, 0623ms total)
T2B14 000:743 JLINK_WriteReg(R10, 0x00000000)  returns 0x00 (0000ms, 0623ms total)
T2B14 000:743 JLINK_WriteReg(R11, 0x00000000)  returns 0x00 (0000ms, 0623ms total)
T2B14 000:744 JLINK_WriteReg(R12, 0x00000000)  returns 0x00 (0000ms, 0624ms total)
T2B14 000:744 JLINK_WriteReg(R13, 0x20000800)  returns 0x00 (0000ms, 0624ms total)
T2B14 000:744 JLINK_WriteReg(R14, 0x20000001)  returns 0x00 (0000ms, 0624ms total)
T2B14 000:744 JLINK_WriteReg(R15, 0x20000020)  returns 0x00 (0000ms, 0624ms total)
T2B14 000:744 JLINK_WriteReg(XPSR, 0x01000000)  returns 0x00 (0000ms, 0624ms total)
T2B14 000:744 JLINK_WriteReg(MSP, 0x20000800)  returns 0x00 (0000ms, 0624ms total)
T2B14 000:744 JLINK_WriteReg(PSP, 0x20000800)  returns 0x00 (0000ms, 0624ms total)
T2B14 000:744 JLINK_WriteReg(CFBP, 0x00000000)  returns 0x00 (0000ms, 0624ms total)
T2B14 000:744 JLINK_SetBPEx(Addr = 0x20000000, Type = 0xFFFFFFF2)  returns 0x00000004 (0000ms, 0624ms total)
T2B14 000:744 JLINK_Go() (0002ms, 0626ms total)
T2B14 000:746 JLINK_IsHalted() -- CPU_ReadMem(2 bytes @ 0x20000000)  returns TRUE (0007ms, 0633ms total)
T2B14 000:753 JLINK_ReadReg(R15)  returns 0x20000000 (0000ms, 0626ms total)
T2B14 000:753 JLINK_ClrBPEx(BPHandle = 0x00000004)  returns 0x00 (0000ms, 0626ms total)
T2B14 000:753 JLINK_ReadReg(R0)  returns 0x00000001 (0000ms, 0626ms total)
T2B14 000:753 JLINK_WriteReg(R0, 0x08000800)  returns 0x00 (0000ms, 0626ms total)
T2B14 000:753 JLINK_WriteReg(R1, 0x00000800)  returns 0x00 (0001ms, 0627ms total)
T2B14 000:754 JLINK_WriteReg(R2, 0x000000FF)  returns 0x00 (0000ms, 0627ms total)
T2B14 000:754 JLINK_WriteReg(R3, 0x00000000)  returns 0x00 (0000ms, 0627ms total)
T2B14 000:754 JLINK_WriteReg(R4, 0x00000000)  returns 0x00 (0000ms, 0627ms total)
T2B14 000:754 JLINK_WriteReg(R5, 0x00000000)  returns 0x00 (0000ms, 0627ms total)
T2B14 000:754 JLINK_WriteReg(R6, 0x00000000)  returns 0x00 (0000ms, 0627ms total)
T2B14 000:754 JLINK_WriteReg(R7, 0x00000000)  returns 0x00 (0000ms, 0627ms total)
T2B14 000:754 JLINK_WriteReg(R8, 0x00000000)  returns 0x00 (0000ms, 0627ms total)
T2B14 000:754 JLINK_WriteReg(R9, 0x20000160)  returns 0x00 (0000ms, 0627ms total)
T2B14 000:754 JLINK_WriteReg(R10, 0x00000000)  returns 0x00 (0000ms, 0627ms total)
T2B14 000:754 JLINK_WriteReg(R11, 0x00000000)  returns 0x00 (0000ms, 0627ms total)
T2B14 000:754 JLINK_WriteReg(R12, 0x00000000)  returns 0x00 (0000ms, 0627ms total)
T2B14 000:754 JLINK_WriteReg(R13, 0x20000800)  returns 0x00 (0000ms, 0627ms total)
T2B14 000:754 JLINK_WriteReg(R14, 0x20000001)  returns 0x00 (0000ms, 0627ms total)
T2B14 000:754 JLINK_WriteReg(R15, 0x200000B6)  returns 0x00 (0000ms, 0627ms total)
T2B14 000:754 JLINK_WriteReg(XPSR, 0x01000000)  returns 0x00 (0000ms, 0627ms total)
T2B14 000:754 JLINK_WriteReg(MSP, 0x20000800)  returns 0x00 (0000ms, 0627ms total)
T2B14 000:754 JLINK_WriteReg(PSP, 0x20000800)  returns 0x00 (0000ms, 0627ms total)
T2B14 000:754 JLINK_WriteReg(CFBP, 0x00000000)  returns 0x00 (0000ms, 0627ms total)
T2B14 000:754 JLINK_SetBPEx(Addr = 0x20000000, Type = 0xFFFFFFF2)  returns 0x00000005 (0000ms, 0627ms total)
T2B14 000:754 JLINK_Go() (0003ms, 0630ms total)
T2B14 000:757 JLINK_IsHalted()  returns FALSE (0001ms, 0631ms total)
T2B14 000:808 JLINK_IsHalted() -- CPU_ReadMem(2 bytes @ 0x20000000)  returns TRUE (0007ms, 0637ms total)
T2B14 000:815 JLINK_ReadReg(R15)  returns 0x20000000 (0000ms, 0630ms total)
T2B14 000:815 JLINK_ClrBPEx(BPHandle = 0x00000005)  returns 0x00 (0000ms, 0630ms total)
T2B14 000:815 JLINK_ReadReg(R0)  returns 0x00000000 (0000ms, 0630ms total)
T2B14 000:818 JLINK_WriteReg(R0, 0x08001000)  returns 0x00 (0000ms, 0630ms total)
T2B14 000:818 JLINK_WriteReg(R1, 0x00000800)  returns 0x00 (0000ms, 0630ms total)
T2B14 000:818 JLINK_WriteReg(R2, 0x000000FF)  returns 0x00 (0000ms, 0630ms total)
T2B14 000:818 JLINK_WriteReg(R3, 0x00000000)  returns 0x00 (0000ms, 0630ms total)
T2B14 000:818 JLINK_WriteReg(R4, 0x00000000)  returns 0x00 (0000ms, 0630ms total)
T2B14 000:818 JLINK_WriteReg(R5, 0x00000000)  returns 0x00 (0000ms, 0630ms total)
T2B14 000:818 JLINK_WriteReg(R6, 0x00000000)  returns 0x00 (0000ms, 0630ms total)
T2B14 000:818 JLINK_WriteReg(R7, 0x00000000)  returns 0x00 (0000ms, 0630ms total)
T2B14 000:818 JLINK_WriteReg(R8, 0x00000000)  returns 0x00 (0000ms, 0630ms total)
T2B14 000:818 JLINK_WriteReg(R9, 0x20000160)  returns 0x00 (0000ms, 0630ms total)
T2B14 000:818 JLINK_WriteReg(R10, 0x00000000)  returns 0x00 (0000ms, 0630ms total)
T2B14 000:818 JLINK_WriteReg(R11, 0x00000000)  returns 0x00 (0000ms, 0630ms total)
T2B14 000:818 JLINK_WriteReg(R12, 0x00000000)  returns 0x00 (0000ms, 0630ms total)
T2B14 000:818 JLINK_WriteReg(R13, 0x20000800)  returns 0x00 (0000ms, 0630ms total)
T2B14 000:818 JLINK_WriteReg(R14, 0x20000001)  returns 0x00 (0000ms, 0630ms total)
T2B14 000:818 JLINK_WriteReg(R15, 0x20000020)  returns 0x00 (0000ms, 0630ms total)
T2B14 000:818 JLINK_WriteReg(XPSR, 0x01000000)  returns 0x00 (0000ms, 0630ms total)
T2B14 000:818 JLINK_WriteReg(MSP, 0x20000800)  returns 0x00 (0000ms, 0630ms total)
T2B14 000:818 JLINK_WriteReg(PSP, 0x20000800)  returns 0x00 (0000ms, 0630ms total)
T2B14 000:818 JLINK_WriteReg(CFBP, 0x00000000)  returns 0x00 (0000ms, 0630ms total)
T2B14 000:818 JLINK_SetBPEx(Addr = 0x20000000, Type = 0xFFFFFFF2)  returns 0x00000006 (0000ms, 0630ms total)
T2B14 000:819 JLINK_Go() (0002ms, 0632ms total)
T2B14 000:821 JLINK_IsHalted() -- CPU_ReadMem(2 bytes @ 0x20000000)  returns TRUE (0006ms, 0638ms total)
T2B14 000:827 JLINK_ReadReg(R15)  returns 0x20000000 (0000ms, 0632ms total)
T2B14 000:827 JLINK_ClrBPEx(BPHandle = 0x00000006)  returns 0x00 (0000ms, 0632ms total)
T2B14 000:827 JLINK_ReadReg(R0)  returns 0x00000001 (0000ms, 0632ms total)
T2B14 000:827 JLINK_WriteReg(R0, 0x08001000)  returns 0x00 (0000ms, 0632ms total)
T2B14 000:827 JLINK_WriteReg(R1, 0x00000800)  returns 0x00 (0000ms, 0632ms total)
T2B14 000:827 JLINK_WriteReg(R2, 0x000000FF)  returns 0x00 (0000ms, 0632ms total)
T2B14 000:827 JLINK_WriteReg(R3, 0x00000000)  returns 0x00 (0000ms, 0632ms total)
T2B14 000:827 JLINK_WriteReg(R4, 0x00000000)  returns 0x00 (0000ms, 0632ms total)
T2B14 000:827 JLINK_WriteReg(R5, 0x00000000)  returns 0x00 (0000ms, 0632ms total)
T2B14 000:827 JLINK_WriteReg(R6, 0x00000000)  returns 0x00 (0000ms, 0632ms total)
T2B14 000:827 JLINK_WriteReg(R7, 0x00000000)  returns 0x00 (0000ms, 0632ms total)
T2B14 000:827 JLINK_WriteReg(R8, 0x00000000)  returns 0x00 (0000ms, 0632ms total)
T2B14 000:827 JLINK_WriteReg(R9, 0x20000160)  returns 0x00 (0000ms, 0632ms total)
T2B14 000:827 JLINK_WriteReg(R10, 0x00000000)  returns 0x00 (0001ms, 0633ms total)
T2B14 000:828 JLINK_WriteReg(R11, 0x00000000)  returns 0x00 (0000ms, 0633ms total)
T2B14 000:828 JLINK_WriteReg(R12, 0x00000000)  returns 0x00 (0000ms, 0633ms total)
T2B14 000:828 JLINK_WriteReg(R13, 0x20000800)  returns 0x00 (0000ms, 0633ms total)
T2B14 000:828 JLINK_WriteReg(R14, 0x20000001)  returns 0x00 (0000ms, 0633ms total)
T2B14 000:828 JLINK_WriteReg(R15, 0x200000B6)  returns 0x00 (0000ms, 0633ms total)
T2B14 000:828 JLINK_WriteReg(XPSR, 0x01000000)  returns 0x00 (0000ms, 0633ms total)
T2B14 000:828 JLINK_WriteReg(MSP, 0x20000800)  returns 0x00 (0000ms, 0633ms total)
T2B14 000:828 JLINK_WriteReg(PSP, 0x20000800)  returns 0x00 (0000ms, 0633ms total)
T2B14 000:828 JLINK_WriteReg(CFBP, 0x00000000)  returns 0x00 (0000ms, 0633ms total)
T2B14 000:828 JLINK_SetBPEx(Addr = 0x20000000, Type = 0xFFFFFFF2)  returns 0x00000007 (0000ms, 0633ms total)
T2B14 000:828 JLINK_Go() (0002ms, 0635ms total)
T2B14 000:830 JLINK_IsHalted()  returns FALSE (0001ms, 0636ms total)
T2B14 000:881 JLINK_IsHalted() -- CPU_ReadMem(2 bytes @ 0x20000000)  returns TRUE (0006ms, 0641ms total)
T2B14 000:887 JLINK_ReadReg(R15)  returns 0x20000000 (0000ms, 0635ms total)
T2B14 000:887 JLINK_ClrBPEx(BPHandle = 0x00000007)  returns 0x00 (0000ms, 0635ms total)
T2B14 000:887 JLINK_ReadReg(R0)  returns 0x00000000 (0000ms, 0635ms total)
T2B14 000:888 JLINK_WriteReg(R0, 0x08001800)  returns 0x00 (0000ms, 0635ms total)
T2B14 000:888 JLINK_WriteReg(R1, 0x00000800)  returns 0x00 (0000ms, 0635ms total)
T2B14 000:888 JLINK_WriteReg(R2, 0x000000FF)  returns 0x00 (0000ms, 0635ms total)
T2B14 000:888 JLINK_WriteReg(R3, 0x00000000)  returns 0x00 (0000ms, 0635ms total)
T2B14 000:888 JLINK_WriteReg(R4, 0x00000000)  returns 0x00 (0000ms, 0635ms total)
T2B14 000:888 JLINK_WriteReg(R5, 0x00000000)  returns 0x00 (0000ms, 0635ms total)
T2B14 000:888 JLINK_WriteReg(R6, 0x00000000)  returns 0x00 (0000ms, 0635ms total)
T2B14 000:888 JLINK_WriteReg(R7, 0x00000000)  returns 0x00 (0000ms, 0635ms total)
T2B14 000:888 JLINK_WriteReg(R8, 0x00000000)  returns 0x00 (0000ms, 0635ms total)
T2B14 000:888 JLINK_WriteReg(R9, 0x20000160)  returns 0x00 (0000ms, 0635ms total)
T2B14 000:888 JLINK_WriteReg(R10, 0x00000000)  returns 0x00 (0000ms, 0635ms total)
T2B14 000:888 JLINK_WriteReg(R11, 0x00000000)  returns 0x00 (0000ms, 0635ms total)
T2B14 000:888 JLINK_WriteReg(R12, 0x00000000)  returns 0x00 (0000ms, 0635ms total)
T2B14 000:888 JLINK_WriteReg(R13, 0x20000800)  returns 0x00 (0000ms, 0635ms total)
T2B14 000:888 JLINK_WriteReg(R14, 0x20000001)  returns 0x00 (0000ms, 0635ms total)
T2B14 000:888 JLINK_WriteReg(R15, 0x20000020)  returns 0x00 (0000ms, 0635ms total)
T2B14 000:888 JLINK_WriteReg(XPSR, 0x01000000)  returns 0x00 (0000ms, 0635ms total)
T2B14 000:888 JLINK_WriteReg(MSP, 0x20000800)  returns 0x00 (0000ms, 0635ms total)
T2B14 000:888 JLINK_WriteReg(PSP, 0x20000800)  returns 0x00 (0000ms, 0635ms total)
T2B14 000:888 JLINK_WriteReg(CFBP, 0x00000000)  returns 0x00 (0000ms, 0635ms total)
T2B14 000:888 JLINK_SetBPEx(Addr = 0x20000000, Type = 0xFFFFFFF2)  returns 0x00000008 (0000ms, 0635ms total)
T2B14 000:888 JLINK_Go() (0003ms, 0638ms total)
T2B14 000:891 JLINK_IsHalted() -- CPU_ReadMem(2 bytes @ 0x20000000)  returns TRUE (0006ms, 0644ms total)
T2B14 000:897 JLINK_ReadReg(R15)  returns 0x20000000 (0000ms, 0638ms total)
T2B14 000:897 JLINK_ClrBPEx(BPHandle = 0x00000008)  returns 0x00 (0000ms, 0638ms total)
T2B14 000:897 JLINK_ReadReg(R0)  returns 0x00000001 (0000ms, 0638ms total)
T2B14 000:897 JLINK_WriteReg(R0, 0x08001800)  returns 0x00 (0000ms, 0638ms total)
T2B14 000:897 JLINK_WriteReg(R1, 0x00000800)  returns 0x00 (0000ms, 0638ms total)
T2B14 000:897 JLINK_WriteReg(R2, 0x000000FF)  returns 0x00 (0000ms, 0638ms total)
T2B14 000:897 JLINK_WriteReg(R3, 0x00000000)  returns 0x00 (0000ms, 0638ms total)
T2B14 000:897 JLINK_WriteReg(R4, 0x00000000)  returns 0x00 (0000ms, 0638ms total)
T2B14 000:897 JLINK_WriteReg(R5, 0x00000000)  returns 0x00 (0000ms, 0638ms total)
T2B14 000:897 JLINK_WriteReg(R6, 0x00000000)  returns 0x00 (0000ms, 0638ms total)
T2B14 000:897 JLINK_WriteReg(R7, 0x00000000)  returns 0x00 (0000ms, 0638ms total)
T2B14 000:897 JLINK_WriteReg(R8, 0x00000000)  returns 0x00 (0000ms, 0638ms total)
T2B14 000:897 JLINK_WriteReg(R9, 0x20000160)  returns 0x00 (0000ms, 0638ms total)
T2B14 000:897 JLINK_WriteReg(R10, 0x00000000)  returns 0x00 (0000ms, 0638ms total)
T2B14 000:897 JLINK_WriteReg(R11, 0x00000000)  returns 0x00 (0000ms, 0638ms total)
T2B14 000:897 JLINK_WriteReg(R12, 0x00000000)  returns 0x00 (0000ms, 0638ms total)
T2B14 000:897 JLINK_WriteReg(R13, 0x20000800)  returns 0x00 (0000ms, 0638ms total)
T2B14 000:897 JLINK_WriteReg(R14, 0x20000001)  returns 0x00 (0000ms, 0638ms total)
T2B14 000:897 JLINK_WriteReg(R15, 0x200000B6)  returns 0x00 (0000ms, 0638ms total)
T2B14 000:897 JLINK_WriteReg(XPSR, 0x01000000)  returns 0x00 (0000ms, 0638ms total)
T2B14 000:897 JLINK_WriteReg(MSP, 0x20000800)  returns 0x00 (0000ms, 0638ms total)
T2B14 000:897 JLINK_WriteReg(PSP, 0x20000800)  returns 0x00 (0000ms, 0638ms total)
T2B14 000:897 JLINK_WriteReg(CFBP, 0x00000000)  returns 0x00 (0000ms, 0638ms total)
T2B14 000:897 JLINK_SetBPEx(Addr = 0x20000000, Type = 0xFFFFFFF2)  returns 0x00000009 (0000ms, 0638ms total)
T2B14 000:897 JLINK_Go() (0003ms, 0641ms total)
T2B14 000:900 JLINK_IsHalted()  returns FALSE (0001ms, 0642ms total)
T2B14 000:951 JLINK_IsHalted() -- CPU_ReadMem(2 bytes @ 0x20000000)  returns TRUE (0006ms, 0647ms total)
T2B14 000:957 JLINK_ReadReg(R15)  returns 0x20000000 (0000ms, 0641ms total)
T2B14 000:957 JLINK_ClrBPEx(BPHandle = 0x00000009)  returns 0x00 (0000ms, 0641ms total)
T2B14 000:957 JLINK_ReadReg(R0)  returns 0x00000000 (0000ms, 0641ms total)
T2B14 000:957 JLINK_WriteReg(R0, 0x00000001)  returns 0x00 (0000ms, 0641ms total)
T2B14 000:957 JLINK_WriteReg(R1, 0x00000800)  returns 0x00 (0000ms, 0641ms total)
T2B14 000:957 JLINK_WriteReg(R2, 0x000000FF)  returns 0x00 (0000ms, 0641ms total)
T2B14 000:957 JLINK_WriteReg(R3, 0x00000000)  returns 0x00 (0000ms, 0641ms total)
T2B14 000:957 JLINK_WriteReg(R4, 0x00000000)  returns 0x00 (0000ms, 0641ms total)
T2B14 000:957 JLINK_WriteReg(R5, 0x00000000)  returns 0x00 (0000ms, 0641ms total)
T2B14 000:957 JLINK_WriteReg(R6, 0x00000000)  returns 0x00 (0001ms, 0642ms total)
T2B14 000:958 JLINK_WriteReg(R7, 0x00000000)  returns 0x00 (0000ms, 0642ms total)
T2B14 000:958 JLINK_WriteReg(R8, 0x00000000)  returns 0x00 (0000ms, 0642ms total)
T2B14 000:958 JLINK_WriteReg(R9, 0x20000160)  returns 0x00 (0000ms, 0642ms total)
T2B14 000:958 JLINK_WriteReg(R10, 0x00000000)  returns 0x00 (0000ms, 0642ms total)
T2B14 000:958 JLINK_WriteReg(R11, 0x00000000)  returns 0x00 (0000ms, 0642ms total)
T2B14 000:958 JLINK_WriteReg(R12, 0x00000000)  returns 0x00 (0000ms, 0642ms total)
T2B14 000:958 JLINK_WriteReg(R13, 0x20000800)  returns 0x00 (0000ms, 0642ms total)
T2B14 000:958 JLINK_WriteReg(R14, 0x20000001)  returns 0x00 (0000ms, 0642ms total)
T2B14 000:958 JLINK_WriteReg(R15, 0x2000006A)  returns 0x00 (0000ms, 0642ms total)
T2B14 000:958 JLINK_WriteReg(XPSR, 0x01000000)  returns 0x00 (0000ms, 0642ms total)
T2B14 000:958 JLINK_WriteReg(MSP, 0x20000800)  returns 0x00 (0000ms, 0642ms total)
T2B14 000:958 JLINK_WriteReg(PSP, 0x20000800)  returns 0x00 (0000ms, 0642ms total)
T2B14 000:958 JLINK_WriteReg(CFBP, 0x00000000)  returns 0x00 (0000ms, 0642ms total)
T2B14 000:958 JLINK_SetBPEx(Addr = 0x20000000, Type = 0xFFFFFFF2)  returns 0x0000000A (0000ms, 0642ms total)
T2B14 000:958 JLINK_Go() (0002ms, 0644ms total)
T2B14 000:960 JLINK_IsHalted() -- CPU_ReadMem(2 bytes @ 0x20000000)  returns TRUE (0006ms, 0650ms total)
T2B14 000:966 JLINK_ReadReg(R15)  returns 0x20000000 (0000ms, 0644ms total)
T2B14 000:966 JLINK_ClrBPEx(BPHandle = 0x0000000A)  returns 0x00 (0000ms, 0644ms total)
T2B14 000:966 JLINK_ReadReg(R0)  returns 0x00000000 (0000ms, 0644ms total)
T2B14 001:022 JLINK_WriteMem(0x20000000, 0x0164 Bytes, ...) -- Data:  00 BE 0A E0 0D 78 2D 06 68 40 08 24 40 00 00 D3 ... -- CPU_WriteMem(356 bytes @ 0x20000000)  returns 0x164 (0004ms, 0648ms total)
T2B14 001:026 JLINK_WriteReg(R0, 0x08000000)  returns 0x00 (0000ms, 0648ms total)
T2B14 001:026 JLINK_WriteReg(R1, 0x007A1200)  returns 0x00 (0000ms, 0648ms total)
T2B14 001:026 JLINK_WriteReg(R2, 0x00000002)  returns 0x00 (0000ms, 0648ms total)
T2B14 001:026 JLINK_WriteReg(R3, 0x00000000)  returns 0x00 (0000ms, 0648ms total)
T2B14 001:026 JLINK_WriteReg(R4, 0x00000000)  returns 0x00 (0000ms, 0648ms total)
T2B14 001:026 JLINK_WriteReg(R5, 0x00000000)  returns 0x00 (0000ms, 0648ms total)
T2B14 001:026 JLINK_WriteReg(R6, 0x00000000)  returns 0x00 (0000ms, 0648ms total)
T2B14 001:026 JLINK_WriteReg(R7, 0x00000000)  returns 0x00 (0000ms, 0648ms total)
T2B14 001:026 JLINK_WriteReg(R8, 0x00000000)  returns 0x00 (0000ms, 0648ms total)
T2B14 001:026 JLINK_WriteReg(R9, 0x20000160)  returns 0x00 (0000ms, 0648ms total)
T2B14 001:026 JLINK_WriteReg(R10, 0x00000000)  returns 0x00 (0001ms, 0649ms total)
T2B14 001:027 JLINK_WriteReg(R11, 0x00000000)  returns 0x00 (0000ms, 0649ms total)
T2B14 001:027 JLINK_WriteReg(R12, 0x00000000)  returns 0x00 (0000ms, 0649ms total)
T2B14 001:027 JLINK_WriteReg(R13, 0x20000800)  returns 0x00 (0000ms, 0649ms total)
T2B14 001:027 JLINK_WriteReg(R14, 0x20000001)  returns 0x00 (0000ms, 0649ms total)
T2B14 001:027 JLINK_WriteReg(R15, 0x20000038)  returns 0x00 (0000ms, 0649ms total)
T2B14 001:027 JLINK_WriteReg(XPSR, 0x01000000)  returns 0x00 (0000ms, 0649ms total)
T2B14 001:027 JLINK_WriteReg(MSP, 0x20000800)  returns 0x00 (0000ms, 0649ms total)
T2B14 001:027 JLINK_WriteReg(PSP, 0x20000800)  returns 0x00 (0000ms, 0649ms total)
T2B14 001:027 JLINK_WriteReg(CFBP, 0x00000000)  returns 0x00 (0000ms, 0649ms total)
T2B14 001:027 JLINK_SetBPEx(Addr = 0x20000000, Type = 0xFFFFFFF2) -- CPU_ReadMem(2 bytes @ 0x20000000)  returns 0x0000000B (0000ms, 0649ms total)
T2B14 001:027 JLINK_Go() -- CPU_WriteMem(2 bytes @ 0x20000000) (0003ms, 0652ms total)
T2B14 001:030 JLINK_IsHalted() -- CPU_ReadMem(2 bytes @ 0x20000000)  returns TRUE (0006ms, 0658ms total)
T2B14 001:036 JLINK_ReadReg(R15)  returns 0x20000000 (0000ms, 0652ms total)
T2B14 001:036 JLINK_ClrBPEx(BPHandle = 0x0000000B)  returns 0x00 (0000ms, 0652ms total)
T2B14 001:036 JLINK_ReadReg(R0)  returns 0x00000000 (0000ms, 0652ms total)
T2B14 001:037 JLINK_WriteMem(0x20000164, 0x0400 Bytes, ...) -- Data:  90 06 00 20 95 03 00 08 11 1A 00 08 13 1A 00 08 ... -- CPU_WriteMem(1024 bytes @ 0x20000164)  returns 0x400 (0006ms, 0658ms total)
T2B14 001:043 JLINK_WriteReg(R0, 0x08000000)  returns 0x00 (0000ms, 0658ms total)
T2B14 001:043 JLINK_WriteReg(R1, 0x00000400)  returns 0x00 (0000ms, 0658ms total)
T2B14 001:043 JLINK_WriteReg(R2, 0x20000164)  returns 0x00 (0000ms, 0658ms total)
T2B14 001:043 JLINK_WriteReg(R3, 0x00000000)  returns 0x00 (0000ms, 0658ms total)
T2B14 001:043 JLINK_WriteReg(R4, 0x00000000)  returns 0x00 (0000ms, 0658ms total)
T2B14 001:043 JLINK_WriteReg(R5, 0x00000000)  returns 0x00 (0000ms, 0658ms total)
T2B14 001:043 JLINK_WriteReg(R6, 0x00000000)  returns 0x00 (0000ms, 0658ms total)
T2B14 001:043 JLINK_WriteReg(R7, 0x00000000)  returns 0x00 (0000ms, 0658ms total)
T2B14 001:043 JLINK_WriteReg(R8, 0x00000000)  returns 0x00 (0000ms, 0658ms total)
T2B14 001:043 JLINK_WriteReg(R9, 0x20000160)  returns 0x00 (0000ms, 0658ms total)
T2B14 001:043 JLINK_WriteReg(R10, 0x00000000)  returns 0x00 (0000ms, 0658ms total)
T2B14 001:043 JLINK_WriteReg(R11, 0x00000000)  returns 0x00 (0000ms, 0658ms total)
T2B14 001:043 JLINK_WriteReg(R12, 0x00000000)  returns 0x00 (0000ms, 0658ms total)
T2B14 001:043 JLINK_WriteReg(R13, 0x20000800)  returns 0x00 (0000ms, 0658ms total)
T2B14 001:043 JLINK_WriteReg(R14, 0x20000001)  returns 0x00 (0000ms, 0658ms total)
T2B14 001:043 JLINK_WriteReg(R15, 0x200000F4)  returns 0x00 (0000ms, 0658ms total)
T2B14 001:043 JLINK_WriteReg(XPSR, 0x01000000)  returns 0x00 (0000ms, 0658ms total)
T2B14 001:043 JLINK_WriteReg(MSP, 0x20000800)  returns 0x00 (0000ms, 0658ms total)
T2B14 001:043 JLINK_WriteReg(PSP, 0x20000800)  returns 0x00 (0000ms, 0658ms total)
T2B14 001:043 JLINK_WriteReg(CFBP, 0x00000000)  returns 0x00 (0000ms, 0658ms total)
T2B14 001:043 JLINK_SetBPEx(Addr = 0x20000000, Type = 0xFFFFFFF2)  returns 0x0000000C (0000ms, 0658ms total)
T2B14 001:043 JLINK_Go() (0003ms, 0661ms total)
T2B14 001:046 JLINK_IsHalted()  returns FALSE (0001ms, 0662ms total)
T2B14 001:097 JLINK_IsHalted() -- CPU_ReadMem(2 bytes @ 0x20000000)  returns TRUE (0006ms, 0667ms total)
T2B14 001:103 JLINK_ReadReg(R15)  returns 0x20000000 (0000ms, 0661ms total)
T2B14 001:103 JLINK_ClrBPEx(BPHandle = 0x0000000C)  returns 0x00 (0000ms, 0661ms total)
T2B14 001:103 JLINK_ReadReg(R0)  returns 0x00000000 (0000ms, 0661ms total)
T2B14 001:103 JLINK_WriteMem(0x20000164, 0x0400 Bytes, ...) -- Data:  04 FA 03 F1 84 78 14 40 21 43 09 01 25 4C 06 78 ... -- CPU_WriteMem(1024 bytes @ 0x20000164)  returns 0x400 (0006ms, 0667ms total)
T2B14 001:109 JLINK_WriteReg(R0, 0x08000400)  returns 0x00 (0000ms, 0667ms total)
T2B14 001:109 JLINK_WriteReg(R1, 0x00000400)  returns 0x00 (0000ms, 0667ms total)
T2B14 001:109 JLINK_WriteReg(R2, 0x20000164)  returns 0x00 (0000ms, 0667ms total)
T2B14 001:109 JLINK_WriteReg(R3, 0x00000000)  returns 0x00 (0000ms, 0667ms total)
T2B14 001:109 JLINK_WriteReg(R4, 0x00000000)  returns 0x00 (0000ms, 0667ms total)
T2B14 001:109 JLINK_WriteReg(R5, 0x00000000)  returns 0x00 (0001ms, 0668ms total)
T2B14 001:110 JLINK_WriteReg(R6, 0x00000000)  returns 0x00 (0000ms, 0668ms total)
T2B14 001:110 JLINK_WriteReg(R7, 0x00000000)  returns 0x00 (0000ms, 0668ms total)
T2B14 001:110 JLINK_WriteReg(R8, 0x00000000)  returns 0x00 (0000ms, 0668ms total)
T2B14 001:110 JLINK_WriteReg(R9, 0x20000160)  returns 0x00 (0000ms, 0668ms total)
T2B14 001:110 JLINK_WriteReg(R10, 0x00000000)  returns 0x00 (0000ms, 0668ms total)
T2B14 001:110 JLINK_WriteReg(R11, 0x00000000)  returns 0x00 (0000ms, 0668ms total)
T2B14 001:110 JLINK_WriteReg(R12, 0x00000000)  returns 0x00 (0000ms, 0668ms total)
T2B14 001:110 JLINK_WriteReg(R13, 0x20000800)  returns 0x00 (0000ms, 0668ms total)
T2B14 001:110 JLINK_WriteReg(R14, 0x20000001)  returns 0x00 (0000ms, 0668ms total)
T2B14 001:110 JLINK_WriteReg(R15, 0x200000F4)  returns 0x00 (0000ms, 0668ms total)
T2B14 001:110 JLINK_WriteReg(XPSR, 0x01000000)  returns 0x00 (0000ms, 0668ms total)
T2B14 001:110 JLINK_WriteReg(MSP, 0x20000800)  returns 0x00 (0000ms, 0668ms total)
T2B14 001:110 JLINK_WriteReg(PSP, 0x20000800)  returns 0x00 (0000ms, 0668ms total)
T2B14 001:110 JLINK_WriteReg(CFBP, 0x00000000)  returns 0x00 (0000ms, 0668ms total)
T2B14 001:110 JLINK_SetBPEx(Addr = 0x20000000, Type = 0xFFFFFFF2)  returns 0x0000000D (0000ms, 0668ms total)
T2B14 001:110 JLINK_Go() (0002ms, 0670ms total)
T2B14 001:112 JLINK_IsHalted()  returns FALSE (0001ms, 0671ms total)
T2B14 001:163 JLINK_IsHalted() -- CPU_ReadMem(2 bytes @ 0x20000000)  returns TRUE (0006ms, 0676ms total)
T2B14 001:169 JLINK_ReadReg(R15)  returns 0x20000000 (0000ms, 0670ms total)
T2B14 001:169 JLINK_ClrBPEx(BPHandle = 0x0000000D)  returns 0x00 (0000ms, 0670ms total)
T2B14 001:169 JLINK_ReadReg(R0)  returns 0x00000000 (0000ms, 0670ms total)
T2B14 001:170 JLINK_WriteMem(0x20000164, 0x0400 Bytes, ...) -- Data:  00 00 20 42 DC 00 20 42 DB 48 00 68 40 F0 01 00 ... -- CPU_WriteMem(1024 bytes @ 0x20000164)  returns 0x400 (0006ms, 0676ms total)
T2B14 001:176 JLINK_WriteReg(R0, 0x08000800)  returns 0x00 (0000ms, 0676ms total)
T2B14 001:176 JLINK_WriteReg(R1, 0x00000400)  returns 0x00 (0000ms, 0676ms total)
T2B14 001:176 JLINK_WriteReg(R2, 0x20000164)  returns 0x00 (0000ms, 0676ms total)
T2B14 001:176 JLINK_WriteReg(R3, 0x00000000)  returns 0x00 (0000ms, 0676ms total)
T2B14 001:176 JLINK_WriteReg(R4, 0x00000000)  returns 0x00 (0000ms, 0676ms total)
T2B14 001:176 JLINK_WriteReg(R5, 0x00000000)  returns 0x00 (0000ms, 0676ms total)
T2B14 001:176 JLINK_WriteReg(R6, 0x00000000)  returns 0x00 (0000ms, 0676ms total)
T2B14 001:176 JLINK_WriteReg(R7, 0x00000000)  returns 0x00 (0000ms, 0676ms total)
T2B14 001:176 JLINK_WriteReg(R8, 0x00000000)  returns 0x00 (0000ms, 0676ms total)
T2B14 001:176 JLINK_WriteReg(R9, 0x20000160)  returns 0x00 (0000ms, 0676ms total)
T2B14 001:176 JLINK_WriteReg(R10, 0x00000000)  returns 0x00 (0000ms, 0676ms total)
T2B14 001:176 JLINK_WriteReg(R11, 0x00000000)  returns 0x00 (0000ms, 0676ms total)
T2B14 001:176 JLINK_WriteReg(R12, 0x00000000)  returns 0x00 (0000ms, 0676ms total)
T2B14 001:176 JLINK_WriteReg(R13, 0x20000800)  returns 0x00 (0000ms, 0676ms total)
T2B14 001:176 JLINK_WriteReg(R14, 0x20000001)  returns 0x00 (0000ms, 0676ms total)
T2B14 001:176 JLINK_WriteReg(R15, 0x200000F4)  returns 0x00 (0000ms, 0676ms total)
T2B14 001:177 JLINK_WriteReg(XPSR, 0x01000000)  returns 0x00 (0000ms, 0676ms total)
T2B14 001:177 JLINK_WriteReg(MSP, 0x20000800)  returns 0x00 (0000ms, 0676ms total)
T2B14 001:177 JLINK_WriteReg(PSP, 0x20000800)  returns 0x00 (0000ms, 0676ms total)
T2B14 001:177 JLINK_WriteReg(CFBP, 0x00000000)  returns 0x00 (0000ms, 0676ms total)
T2B14 001:177 JLINK_SetBPEx(Addr = 0x20000000, Type = 0xFFFFFFF2)  returns 0x0000000E (0000ms, 0676ms total)
T2B14 001:177 JLINK_Go() (0002ms, 0678ms total)
T2B14 001:179 JLINK_IsHalted()  returns FALSE (0001ms, 0679ms total)
T2B14 001:230 JLINK_IsHalted() -- CPU_ReadMem(2 bytes @ 0x20000000)  returns TRUE (0006ms, 0684ms total)
T2B14 001:236 JLINK_ReadReg(R15)  returns 0x20000000 (0000ms, 0678ms total)
T2B14 001:236 JLINK_ClrBPEx(BPHandle = 0x0000000E)  returns 0x00 (0000ms, 0678ms total)
T2B14 001:236 JLINK_ReadReg(R0)  returns 0x00000000 (0000ms, 0678ms total)
T2B14 001:237 JLINK_WriteMem(0x20000164, 0x0400 Bytes, ...) -- Data:  04 20 FF F7 8E FF A0 E0 E9 48 84 42 08 D1 01 21 ... -- CPU_WriteMem(1024 bytes @ 0x20000164)  returns 0x400 (0007ms, 0685ms total)
T2B14 001:244 JLINK_WriteReg(R0, 0x08000C00)  returns 0x00 (0000ms, 0685ms total)
T2B14 001:244 JLINK_WriteReg(R1, 0x00000400)  returns 0x00 (0000ms, 0685ms total)
T2B14 001:244 JLINK_WriteReg(R2, 0x20000164)  returns 0x00 (0000ms, 0685ms total)
T2B14 001:244 JLINK_WriteReg(R3, 0x00000000)  returns 0x00 (0000ms, 0685ms total)
T2B14 001:244 JLINK_WriteReg(R4, 0x00000000)  returns 0x00 (0000ms, 0685ms total)
T2B14 001:244 JLINK_WriteReg(R5, 0x00000000)  returns 0x00 (0000ms, 0685ms total)
T2B14 001:244 JLINK_WriteReg(R6, 0x00000000)  returns 0x00 (0000ms, 0685ms total)
T2B14 001:244 JLINK_WriteReg(R7, 0x00000000)  returns 0x00 (0000ms, 0685ms total)
T2B14 001:244 JLINK_WriteReg(R8, 0x00000000)  returns 0x00 (0000ms, 0685ms total)
T2B14 001:244 JLINK_WriteReg(R9, 0x20000160)  returns 0x00 (0000ms, 0685ms total)
T2B14 001:244 JLINK_WriteReg(R10, 0x00000000)  returns 0x00 (0000ms, 0685ms total)
T2B14 001:244 JLINK_WriteReg(R11, 0x00000000)  returns 0x00 (0001ms, 0686ms total)
T2B14 001:245 JLINK_WriteReg(R12, 0x00000000)  returns 0x00 (0000ms, 0686ms total)
T2B14 001:245 JLINK_WriteReg(R13, 0x20000800)  returns 0x00 (0000ms, 0686ms total)
T2B14 001:245 JLINK_WriteReg(R14, 0x20000001)  returns 0x00 (0000ms, 0686ms total)
T2B14 001:245 JLINK_WriteReg(R15, 0x200000F4)  returns 0x00 (0000ms, 0686ms total)
T2B14 001:245 JLINK_WriteReg(XPSR, 0x01000000)  returns 0x00 (0000ms, 0686ms total)
T2B14 001:245 JLINK_WriteReg(MSP, 0x20000800)  returns 0x00 (0000ms, 0686ms total)
T2B14 001:245 JLINK_WriteReg(PSP, 0x20000800)  returns 0x00 (0000ms, 0686ms total)
T2B14 001:245 JLINK_WriteReg(CFBP, 0x00000000)  returns 0x00 (0000ms, 0686ms total)
T2B14 001:245 JLINK_SetBPEx(Addr = 0x20000000, Type = 0xFFFFFFF2)  returns 0x0000000F (0000ms, 0686ms total)
T2B14 001:245 JLINK_Go() (0002ms, 0688ms total)
T2B14 001:247 JLINK_IsHalted()  returns FALSE (0001ms, 0689ms total)
T2B14 001:298 JLINK_IsHalted() -- CPU_ReadMem(2 bytes @ 0x20000000)  returns TRUE (0006ms, 0694ms total)
T2B14 001:304 JLINK_ReadReg(R15)  returns 0x20000000 (0000ms, 0688ms total)
T2B14 001:304 JLINK_ClrBPEx(BPHandle = 0x0000000F)  returns 0x00 (0000ms, 0688ms total)
T2B14 001:304 JLINK_ReadReg(R0)  returns 0x00000000 (0000ms, 0688ms total)
T2B14 001:305 JLINK_WriteMem(0x20000164, 0x0400 Bytes, ...) -- Data:  05 35 2B 43 FA 4D A8 42 02 D0 FA 4D A8 42 08 D1 ... -- CPU_WriteMem(1024 bytes @ 0x20000164)  returns 0x400 (0006ms, 0694ms total)
T2B14 001:311 JLINK_WriteReg(R0, 0x08001000)  returns 0x00 (0000ms, 0694ms total)
T2B14 001:311 JLINK_WriteReg(R1, 0x00000400)  returns 0x00 (0000ms, 0694ms total)
T2B14 001:311 JLINK_WriteReg(R2, 0x20000164)  returns 0x00 (0000ms, 0694ms total)
T2B14 001:311 JLINK_WriteReg(R3, 0x00000000)  returns 0x00 (0000ms, 0694ms total)
T2B14 001:311 JLINK_WriteReg(R4, 0x00000000)  returns 0x00 (0000ms, 0694ms total)
T2B14 001:311 JLINK_WriteReg(R5, 0x00000000)  returns 0x00 (0000ms, 0694ms total)
T2B14 001:311 JLINK_WriteReg(R6, 0x00000000)  returns 0x00 (0000ms, 0694ms total)
T2B14 001:311 JLINK_WriteReg(R7, 0x00000000)  returns 0x00 (0000ms, 0694ms total)
T2B14 001:311 JLINK_WriteReg(R8, 0x00000000)  returns 0x00 (0000ms, 0694ms total)
T2B14 001:311 JLINK_WriteReg(R9, 0x20000160)  returns 0x00 (0000ms, 0694ms total)
T2B14 001:311 JLINK_WriteReg(R10, 0x00000000)  returns 0x00 (0000ms, 0694ms total)
T2B14 001:311 JLINK_WriteReg(R11, 0x00000000)  returns 0x00 (0001ms, 0695ms total)
T2B14 001:312 JLINK_WriteReg(R12, 0x00000000)  returns 0x00 (0000ms, 0695ms total)
T2B14 001:312 JLINK_WriteReg(R13, 0x20000800)  returns 0x00 (0000ms, 0695ms total)
T2B14 001:312 JLINK_WriteReg(R14, 0x20000001)  returns 0x00 (0000ms, 0695ms total)
T2B14 001:312 JLINK_WriteReg(R15, 0x200000F4)  returns 0x00 (0000ms, 0695ms total)
T2B14 001:312 JLINK_WriteReg(XPSR, 0x01000000)  returns 0x00 (0000ms, 0695ms total)
T2B14 001:312 JLINK_WriteReg(MSP, 0x20000800)  returns 0x00 (0000ms, 0695ms total)
T2B14 001:312 JLINK_WriteReg(PSP, 0x20000800)  returns 0x00 (0000ms, 0695ms total)
T2B14 001:312 JLINK_WriteReg(CFBP, 0x00000000)  returns 0x00 (0000ms, 0695ms total)
T2B14 001:312 JLINK_SetBPEx(Addr = 0x20000000, Type = 0xFFFFFFF2)  returns 0x00000010 (0000ms, 0695ms total)
T2B14 001:312 JLINK_Go() (0002ms, 0697ms total)
T2B14 001:314 JLINK_IsHalted()  returns FALSE (0001ms, 0698ms total)
T2B14 001:365 JLINK_IsHalted() -- CPU_ReadMem(2 bytes @ 0x20000000)  returns TRUE (0006ms, 0703ms total)
T2B14 001:371 JLINK_ReadReg(R15)  returns 0x20000000 (0000ms, 0697ms total)
T2B14 001:371 JLINK_ClrBPEx(BPHandle = 0x00000010)  returns 0x00 (0000ms, 0697ms total)
T2B14 001:371 JLINK_ReadReg(R0)  returns 0x00000000 (0000ms, 0697ms total)
T2B14 001:372 JLINK_WriteMem(0x20000164, 0x0400 Bytes, ...) -- Data:  00 0C 00 40 21 B1 02 88 42 F0 01 02 02 80 04 E0 ... -- CPU_WriteMem(1024 bytes @ 0x20000164)  returns 0x400 (0006ms, 0703ms total)
T2B14 001:378 JLINK_WriteReg(R0, 0x08001400)  returns 0x00 (0000ms, 0703ms total)
T2B14 001:378 JLINK_WriteReg(R1, 0x00000400)  returns 0x00 (0001ms, 0704ms total)
T2B14 001:379 JLINK_WriteReg(R2, 0x20000164)  returns 0x00 (0000ms, 0704ms total)
T2B14 001:379 JLINK_WriteReg(R3, 0x00000000)  returns 0x00 (0000ms, 0704ms total)
T2B14 001:379 JLINK_WriteReg(R4, 0x00000000)  returns 0x00 (0000ms, 0704ms total)
T2B14 001:379 JLINK_WriteReg(R5, 0x00000000)  returns 0x00 (0000ms, 0704ms total)
T2B14 001:379 JLINK_WriteReg(R6, 0x00000000)  returns 0x00 (0000ms, 0704ms total)
T2B14 001:379 JLINK_WriteReg(R7, 0x00000000)  returns 0x00 (0000ms, 0704ms total)
T2B14 001:379 JLINK_WriteReg(R8, 0x00000000)  returns 0x00 (0000ms, 0704ms total)
T2B14 001:379 JLINK_WriteReg(R9, 0x20000160)  returns 0x00 (0000ms, 0704ms total)
T2B14 001:379 JLINK_WriteReg(R10, 0x00000000)  returns 0x00 (0000ms, 0704ms total)
T2B14 001:379 JLINK_WriteReg(R11, 0x00000000)  returns 0x00 (0000ms, 0704ms total)
T2B14 001:379 JLINK_WriteReg(R12, 0x00000000)  returns 0x00 (0000ms, 0704ms total)
T2B14 001:379 JLINK_WriteReg(R13, 0x20000800)  returns 0x00 (0000ms, 0704ms total)
T2B14 001:379 JLINK_WriteReg(R14, 0x20000001)  returns 0x00 (0000ms, 0704ms total)
T2B14 001:379 JLINK_WriteReg(R15, 0x200000F4)  returns 0x00 (0000ms, 0704ms total)
T2B14 001:379 JLINK_WriteReg(XPSR, 0x01000000)  returns 0x00 (0000ms, 0704ms total)
T2B14 001:379 JLINK_WriteReg(MSP, 0x20000800)  returns 0x00 (0000ms, 0704ms total)
T2B14 001:379 JLINK_WriteReg(PSP, 0x20000800)  returns 0x00 (0000ms, 0704ms total)
T2B14 001:379 JLINK_WriteReg(CFBP, 0x00000000)  returns 0x00 (0000ms, 0704ms total)
T2B14 001:379 JLINK_SetBPEx(Addr = 0x20000000, Type = 0xFFFFFFF2)  returns 0x00000011 (0000ms, 0704ms total)
T2B14 001:379 JLINK_Go() (0002ms, 0706ms total)
T2B14 001:381 JLINK_IsHalted()  returns FALSE (0001ms, 0707ms total)
T2B14 001:432 JLINK_IsHalted() -- CPU_ReadMem(2 bytes @ 0x20000000)  returns TRUE (0007ms, 0713ms total)
T2B14 001:439 JLINK_ReadReg(R15)  returns 0x20000000 (0000ms, 0706ms total)
T2B14 001:440 JLINK_ClrBPEx(BPHandle = 0x00000011)  returns 0x00 (0000ms, 0706ms total)
T2B14 001:440 JLINK_ReadReg(R0)  returns 0x00000000 (0000ms, 0706ms total)
T2B14 001:442 JLINK_WriteMem(0x20000164, 0x0400 Bytes, ...) -- Data:  4F F6 FF 73 03 EA 02 33 19 43 01 84 70 47 30 B5 ... -- CPU_WriteMem(1024 bytes @ 0x20000164)  returns 0x400 (0006ms, 0712ms total)
T2B14 001:449 JLINK_WriteReg(R0, 0x08001800)  returns 0x00 (0000ms, 0712ms total)
T2B14 001:449 JLINK_WriteReg(R1, 0x00000400)  returns 0x00 (0000ms, 0712ms total)
T2B14 001:449 JLINK_WriteReg(R2, 0x20000164)  returns 0x00 (0000ms, 0712ms total)
T2B14 001:449 JLINK_WriteReg(R3, 0x00000000)  returns 0x00 (0000ms, 0712ms total)
T2B14 001:449 JLINK_WriteReg(R4, 0x00000000)  returns 0x00 (0000ms, 0712ms total)
T2B14 001:449 JLINK_WriteReg(R5, 0x00000000)  returns 0x00 (0000ms, 0712ms total)
T2B14 001:449 JLINK_WriteReg(R6, 0x00000000)  returns 0x00 (0000ms, 0712ms total)
T2B14 001:449 JLINK_WriteReg(R7, 0x00000000)  returns 0x00 (0000ms, 0712ms total)
T2B14 001:449 JLINK_WriteReg(R8, 0x00000000)  returns 0x00 (0000ms, 0712ms total)
T2B14 001:449 JLINK_WriteReg(R9, 0x20000160)  returns 0x00 (0000ms, 0712ms total)
T2B14 001:449 JLINK_WriteReg(R10, 0x00000000)  returns 0x00 (0000ms, 0712ms total)
T2B14 001:449 JLINK_WriteReg(R11, 0x00000000)  returns 0x00 (0000ms, 0712ms total)
T2B14 001:449 JLINK_WriteReg(R12, 0x00000000)  returns 0x00 (0000ms, 0712ms total)
T2B14 001:449 JLINK_WriteReg(R13, 0x20000800)  returns 0x00 (0000ms, 0712ms total)
T2B14 001:449 JLINK_WriteReg(R14, 0x20000001)  returns 0x00 (0000ms, 0712ms total)
T2B14 001:449 JLINK_WriteReg(R15, 0x200000F4)  returns 0x00 (0000ms, 0712ms total)
T2B14 001:449 JLINK_WriteReg(XPSR, 0x01000000)  returns 0x00 (0000ms, 0712ms total)
T2B14 001:449 JLINK_WriteReg(MSP, 0x20000800)  returns 0x00 (0000ms, 0712ms total)
T2B14 001:449 JLINK_WriteReg(PSP, 0x20000800)  returns 0x00 (0000ms, 0712ms total)
